
T0A54 000:289 SEGGER J-Link V4.98e Log File (0000ms, 0270ms total)
T0A54 000:289 DLL Compiled: May  5 2015 11:00:52 (0001ms, 0271ms total)
T0A54 000:289 Logging started @ 2016-04-15 19:44 (0001ms, 0271ms total)
T0A54 000:290 JLINK_SetWarnOutHandler(...) (0000ms, 0271ms total)
T0A54 000:290 JLINK_OpenEx(...)
Firmware: J-Link V9 compiled Apr 21 2015 18:10:40
Hardware: V9.10
S/N: 59100875
Feature(s): GDB, RDI, FlashBP, FlashDL, JFlash  returns O.K. (0271ms, 0542ms total)
T0A54 000:561 JLINK_SetErrorOutHandler(...) (0000ms, 0542ms total)
T0A54 000:561 JLINK_ExecCommand("ProjectFile = "E:\_04_STM32\_03_¸öÈË³ÌÐò\ALIENTEK\__03_WindOS\_02_WindOS2\_09(¶ÁÆÁÄ»ID)\JLinkSettings.ini"", ...)  returns 0x00 (0004ms, 0546ms total)
T0A54 000:566 JLINK_ExecCommand("Device = STM32F407ZG", ...)Device "STM32F407ZG" selected.  returns 0x00 (0002ms, 0548ms total)
T0A54 000:568 JLINK_ExecCommand("DisableConnectionTimeout", ...)  returns 0x01 (0000ms, 0548ms total)
T0A54 000:568 JLINK_GetHardwareVersion()  returns 0x16378 (0000ms, 0548ms total)
T0A54 000:568 JLINK_GetDLLVersion()  returns 49805 (0000ms, 0548ms total)
T0A54 000:568 JLINK_GetFirmwareString(...) (0000ms, 0548ms total)
T0A54 000:569 JLINK_GetDLLVersion()  returns 49805 (0000ms, 0548ms total)
T0A54 000:569 JLINK_GetCompileDateTime() (0000ms, 0548ms total)
T0A54 000:570 JLINK_GetFirmwareString(...) (0000ms, 0548ms total)
T0A54 000:572 JLINK_GetHardwareVersion()  returns 0x16378 (0000ms, 0548ms total)
T0A54 000:576 JLINK_TIF_Select(JLINKARM_TIF_SWD)  returns 0x00 (0003ms, 0551ms total)
T0A54 000:579 JLINK_SetSpeed(50000) (0000ms, 0551ms total)
T0A54 000:579 JLINK_GetId() >0x108 TIF>Found SWD-DP with ID 0x2BA01477 >0x0D TIF> >0x28 TIF> >0x0D TIF> >0x28 TIF> >0x0D TIF> >0x21 TIF> >0x0D TIF> >0x28 TIF> >0x0D TIF> >0x28 TIF> >0x0D TIF> >0x28 TIF> >0x0D TIF> >0x21 TIF> >0x0D TIF> >0x21 TIF> >0x0D TIF> >0x28 TIF> >0x0D TIF> >0x21 TIF> >0x0D TIF> >0x21 TIF> >0x0D TIF> >0x28 TIF> >0x0D TIF> >0x21 TIF> >0x0D TIF> >0x21 TIF> >0x108 TIF>Found SWD-DP with ID 0x2BA01477 >0x0D TIF> >0x21 TIF> >0x0D TIF> >0x28 TIF> >0x0D TIF> >0x28 TIF> >0x0D TIF> >0x21 TIF>
 >0x0D TIF> >0x28 TIF> >0x0D TIF> >0x21 TIF> >0x0D TIF> >0x21 TIF> >0x0D TIF> >0x21 TIF> >0x0D TIF> >0x21 TIF> >0x0D TIF> >0x28 TIF> >0x0D TIF> >0x28 TIF> >0x0D TIF> >0x21 TIF> >0x0D TIF> >0x28 TIF> >0x0D TIF> >0x28 TIF> >0x0D TIF> >0x28 TIF> >0x0D TIF> >0x21 TIF> >0x0D TIF> >0x21 TIF> >0x0D TIF> >0x28 TIF> >0x0D TIF> >0x21 TIF> >0x0D TIF> >0x21 TIF>Found Cortex-M4 r0p1, Little endian. -- CPU_WriteMem(4 bytes @ 0xE0002000) -- CPU_ReadMem(4 bytes @ 0xE000EDF0) -- CPU_ReadMem(4 bytes @ 0xE0002000)
FPUnit: 6 code (BP) slots and 2 literal slots -- CPU_ReadMem(4 bytes @ 0xE000EDFC) -- CPU_ReadMem(4 bytes @ 0xE0001000) -- CPU_WriteMem(4 bytes @ 0xE0001000) -- CPU_ReadMem(4 bytes @ 0xE000ED88) -- CPU_WriteMem(4 bytes @ 0xE000ED88) -- CPU_ReadMem(4 bytes @ 0xE000ED88) -- CPU_WriteMem(4 bytes @ 0xE000ED88)CoreSight components:ROMTbl 0 @ E00FF000 -- CPU_ReadMem(16 bytes @ 0xE00FF000) -- CPU_ReadMem(16 bytes @ 0xE000EFF0) -- CPU_ReadMem(16 bytes @ 0xE000EFE0)
ROMTbl 0 [0]: FFF0F000, CID: B105E00D, PID: 000BB00C SCS -- CPU_ReadMem(16 bytes @ 0xE0001FF0) -- CPU_ReadMem(16 bytes @ 0xE0001FE0)ROMTbl 0 [1]: FFF02000, CID: B105E00D, PID: 003BB002 DWT -- CPU_ReadMem(16 bytes @ 0xE0002FF0) -- CPU_ReadMem(16 bytes @ 0xE0002FE0)ROMTbl 0 [2]: FFF03000, CID: B105E00D, PID: 002BB003 FPB -- CPU_ReadMem(16 bytes @ 0xE0000FF0) -- CPU_ReadMem(16 bytes @ 0xE0000FE0)ROMTbl 0 [3]: FFF01000, CID: B105E00D, PID: 003BB001 ITM -- CPU_ReadMem(16 bytes @ 0xE00FF010)
 -- CPU_ReadMem(16 bytes @ 0xE0040FF0) -- CPU_ReadMem(16 bytes @ 0xE0040FE0)ROMTbl 0 [4]: FFF41000, CID: B105900D, PID: 000BB9A1 TPIU -- CPU_ReadMem(16 bytes @ 0xE0041FF0) -- CPU_ReadMem(16 bytes @ 0xE0041FE0)ROMTbl 0 [5]: FFF42000, CID: B105900D, PID: 000BB925 ETM >0x0D TIF> >0x21 TIF>  returns 0x2BA01477 (0058ms, 0609ms total)
T0A54 000:637 JLINK_GetDLLVersion()  returns 49805 (0000ms, 0609ms total)
T0A54 000:637 JLINK_CORE_GetFound()  returns 0xE0000FF (0000ms, 0609ms total)
T0A54 000:637 JLINK_GetDebugInfo(0x100) -- Value=0xE00FF003  returns 0x00 (0000ms, 0609ms total)
T0A54 000:637 JLINK_ReadMem (0xE00FF000, 0x0020 Bytes, ...) -- CPU is running -- CPU_ReadMem(32 bytes @ 0xE00FF000) - Data: 03 F0 F0 FF 03 20 F0 FF 03 30 F0 FF 03 10 F0 FF ...  returns 0x00 (0001ms, 0610ms total)
T0A54 000:638 JLINK_ReadMem (0xE000EFF0, 0x0010 Bytes, ...) -- CPU is running -- CPU_ReadMem(16 bytes @ 0xE000EFF0) - Data: 0D 00 00 00 E0 00 00 00 05 00 00 00 B1 00 00 00  returns 0x00 (0001ms, 0611ms total)
T0A54 000:639 JLINK_ReadMem (0xE000EFD0, 0x0020 Bytes, ...) -- CPU is running -- CPU_ReadMem(32 bytes @ 0xE000EFD0) - Data: 04 00 00 00 00 00 00 00 00 00 00 00 00 00 00 00 ...  returns 0x00 (0000ms, 0611ms total)
T0A54 000:639 JLINK_ReadMem (0xE0001FF0, 0x0010 Bytes, ...) -- CPU is running -- CPU_ReadMem(16 bytes @ 0xE0001FF0) - Data: 0D 00 00 00 E0 00 00 00 05 00 00 00 B1 00 00 00  returns 0x00 (0001ms, 0612ms total)
T0A54 000:640 JLINK_ReadMem (0xE0001FD0, 0x0020 Bytes, ...) -- CPU is running -- CPU_ReadMem(32 bytes @ 0xE0001FD0) - Data: 04 00 00 00 00 00 00 00 00 00 00 00 00 00 00 00 ...  returns 0x00 (0001ms, 0613ms total)
T0A54 000:641 JLINK_ReadMem (0xE0002FF0, 0x0010 Bytes, ...) -- CPU is running -- CPU_ReadMem(16 bytes @ 0xE0002FF0) - Data: 0D 00 00 00 E0 00 00 00 05 00 00 00 B1 00 00 00  returns 0x00 (0000ms, 0613ms total)
T0A54 000:641 JLINK_ReadMem (0xE0002FD0, 0x0020 Bytes, ...) -- CPU is running -- CPU_ReadMem(32 bytes @ 0xE0002FD0) - Data: 04 00 00 00 00 00 00 00 00 00 00 00 00 00 00 00 ...  returns 0x00 (0001ms, 0614ms total)
T0A54 000:642 JLINK_ReadMem (0xE0000FF0, 0x0010 Bytes, ...) -- CPU is running -- CPU_ReadMem(16 bytes @ 0xE0000FF0) - Data: 0D 00 00 00 E0 00 00 00 05 00 00 00 B1 00 00 00  returns 0x00 (0001ms, 0615ms total)
T0A54 000:643 JLINK_ReadMem (0xE0000FD0, 0x0020 Bytes, ...) -- CPU is running -- CPU_ReadMem(32 bytes @ 0xE0000FD0) - Data: 04 00 00 00 00 00 00 00 00 00 00 00 00 00 00 00 ...  returns 0x00 (0000ms, 0615ms total)
T0A54 000:643 JLINK_ReadMem (0xE0040FF0, 0x0010 Bytes, ...) -- CPU is running -- CPU_ReadMem(16 bytes @ 0xE0040FF0) - Data: 0D 00 00 00 90 00 00 00 05 00 00 00 B1 00 00 00  returns 0x00 (0001ms, 0616ms total)
T0A54 000:644 JLINK_ReadMem (0xE0040FD0, 0x0020 Bytes, ...) -- CPU is running -- CPU_ReadMem(32 bytes @ 0xE0040FD0) - Data: 04 00 00 00 00 00 00 00 00 00 00 00 00 00 00 00 ...  returns 0x00 (0001ms, 0617ms total)
T0A54 000:645 JLINK_ReadMem (0xE0041FF0, 0x0010 Bytes, ...) -- CPU is running -- CPU_ReadMem(16 bytes @ 0xE0041FF0) - Data: 0D 00 00 00 90 00 00 00 05 00 00 00 B1 00 00 00  returns 0x00 (0000ms, 0617ms total)
T0A54 000:645 JLINK_ReadMem (0xE0041FD0, 0x0020 Bytes, ...) -- CPU is running -- CPU_ReadMem(32 bytes @ 0xE0041FD0) - Data: 04 00 00 00 00 00 00 00 00 00 00 00 00 00 00 00 ...  returns 0x00 (0001ms, 0618ms total)
T0A54 000:646 JLINK_ReadMemU32(0xE000EF40, 0x0001 Items, ...) -- CPU is running -- CPU_ReadMem(4 bytes @ 0xE000EF40) - Data: 21 00 11 10  returns 0x01 (0001ms, 0619ms total)
T0A54 000:647 JLINK_ReadMemU32(0xE000EF44, 0x0001 Items, ...) -- CPU is running -- CPU_ReadMem(4 bytes @ 0xE000EF44) - Data: 11 00 00 11  returns 0x01 (0000ms, 0619ms total)
T0A54 000:647 JLINK_ReadMemU32(0xE000ED00, 0x0001 Items, ...) -- CPU is running -- CPU_ReadMem(4 bytes @ 0xE000ED00) - Data: 41 C2 0F 41  returns 0x01 (0001ms, 0620ms total)
T0A54 000:648 JLINK_SetResetType(JLINKARM_RESET_TYPE_NORMAL)  returns JLINKARM_RESET_TYPE_NORMAL (0000ms, 0620ms total)
T0A54 000:648 JLINK_Reset() -- CPU is running -- CPU_WriteMem(4 bytes @ 0xE000EDF0) -- CPU is running -- CPU_WriteMem(4 bytes @ 0xE000EDFC) >0x35 TIF> -- CPU is running -- CPU_WriteMem(4 bytes @ 0xE000ED0C) -- CPU is running -- CPU_ReadMem(4 bytes @ 0xE000EDF0) -- CPU is running -- CPU_ReadMem(4 bytes @ 0xE000EDF0) -- CPU is running -- CPU_WriteMem(4 bytes @ 0xE000EDF0) -- CPU is running -- CPU_WriteMem(4 bytes @ 0xE000EDFC) -- CPU is running -- CPU_ReadMem(4 bytes @ 0xE000EDF0)
 -- CPU_WriteMem(4 bytes @ 0xE0002000) -- CPU_ReadMem(4 bytes @ 0xE000EDFC) -- CPU_ReadMem(4 bytes @ 0xE0001000) (0016ms, 0636ms total)
T0A54 000:665 JLINK_ReadReg(R15 (PC))  returns 0x0800019C (0000ms, 0636ms total)
T0A54 000:665 JLINK_ReadReg(XPSR)  returns 0x01000000 (0000ms, 0636ms total)
T0A54 000:665 JLINK_Halt()  returns 0x00 (0000ms, 0636ms total)
T0A54 000:665 JLINK_IsHalted()  returns TRUE (0000ms, 0636ms total)
T0A54 000:665 JLINK_ReadMemU32(0xE000EDF0, 0x0001 Items, ...) -- CPU_ReadMem(4 bytes @ 0xE000EDF0) - Data: 03 00 03 00  returns 0x01 (0000ms, 0636ms total)
T0A54 000:665 JLINK_WriteU32(0xE000EDF0, 0xA05F0003) -- CPU_WriteMem(4 bytes @ 0xE000EDF0)  returns 0x00 (0001ms, 0637ms total)
T0A54 000:666 JLINK_WriteU32(0xE000EDFC, 0x01000000) -- CPU_WriteMem(4 bytes @ 0xE000EDFC)  returns 0x00 (0000ms, 0637ms total)
T0A54 000:667 JLINK_GetHWStatus(...)  returns 0x00 (0001ms, 0638ms total)
T0A54 000:668 JLINK_GetNumBPUnits(Type = 0xFFFFFF00)  returns 0x06 (0000ms, 0638ms total)
T0A54 000:668 JLINK_GetNumBPUnits(Type = 0xF0)  returns 0x2000 (0000ms, 0638ms total)
T0A54 000:668 JLINK_GetNumWPUnits()  returns 0x04 (0000ms, 0638ms total)
T0A54 000:669 JLINK_GetSpeed()  returns 0x2EE0 (0000ms, 0638ms total)
T0A54 000:669 JLINK_ReadMemU32(0xE000E004, 0x0001 Items, ...) -- CPU_ReadMem(4 bytes @ 0xE000E004) - Data: 02 00 00 00  returns 0x01 (0000ms, 0638ms total)
T0A54 000:670 JLINK_ReadMemU32(0xE000E004, 0x0001 Items, ...) -- CPU_ReadMem(4 bytes @ 0xE000E004) - Data: 02 00 00 00  returns 0x01 (0000ms, 0639ms total)
T0A54 000:670 JLINK_WriteMem(0xE0001000, 0x001C Bytes, ...) - Data: 01 00 00 00 00 00 00 00 00 00 00 00 00 00 00 00 ... -- CPU_WriteMem(28 bytes @ 0xE0001000)  returns 0x1C (0001ms, 0640ms total)
T0A54 000:671 JLINK_ReadMem (0xE0001000, 0x001C Bytes, ...) -- CPU_ReadMem(28 bytes @ 0xE0001000) - Data: 01 00 00 40 00 00 00 00 00 00 00 00 00 00 00 00 ...  returns 0x00 (0001ms, 0641ms total)
T0A54 000:672 JLINK_ReadReg(R15 (PC))  returns 0x0800019C (0000ms, 0641ms total)
T0A54 000:672 JLINK_ReadReg(XPSR)  returns 0x01000000 (0000ms, 0641ms total)
T0A54 000:899 JLINK_SetResetType(JLINKARM_RESET_TYPE_NORMAL)  returns JLINKARM_RESET_TYPE_NORMAL (0000ms, 0641ms total)
T0A54 000:899 JLINK_Reset() -- CPU_WriteMem(4 bytes @ 0xE000EDF0) -- CPU_WriteMem(4 bytes @ 0xE000EDFC) >0x35 TIF> -- CPU_WriteMem(4 bytes @ 0xE000ED0C) -- CPU_ReadMem(4 bytes @ 0xE000EDF0) -- CPU_ReadMem(4 bytes @ 0xE000EDF0) -- CPU_WriteMem(4 bytes @ 0xE000EDF0) -- CPU_WriteMem(4 bytes @ 0xE000EDFC) -- CPU is running -- CPU_ReadMem(4 bytes @ 0xE000EDF0) -- CPU_WriteMem(4 bytes @ 0xE0002000) -- CPU_ReadMem(4 bytes @ 0xE000EDFC) -- CPU_ReadMem(4 bytes @ 0xE0001000) (0019ms, 0660ms total)
T0A54 000:918 JLINK_ReadReg(R15 (PC))  returns 0x0800019C (0000ms, 0660ms total)
T0A54 000:918 JLINK_ReadReg(XPSR)  returns 0x01000000 (0000ms, 0660ms total)
T0A54 001:212 JLINK_ReadMem (0x0800019C, 0x003C Bytes, ...) -- CPU_ReadMem(128 bytes @ 0x08000180) -- Updating C cache (128 bytes @ 0x08000180) -- Read from C cache (60 bytes @ 0x0800019C) - Data: 06 48 80 47 06 48 00 47 FE E7 FE E7 FE E7 FE E7 ...  returns 0x00 (0004ms, 0664ms total)
T0A54 002:178 JLINK_ReadMem (0x00000000, 0x010E Bytes, ...) -- CPU_ReadMem(4 bytes @ 0x00000004) -- CPU_ReadMem(320 bytes @ 0x08000000) -- Updating C cache (320 bytes @ 0x08000000) -- Read from C cache (270 bytes @ 0x08000000) - Data: 30 06 01 20 9D 01 00 08 D5 64 00 08 7D 1A 00 08 ...  returns 0x00 (0002ms, 0666ms total)
T2A28 003:055 JLINK_SetBPEx(Addr = 0x080095CC, Type = 0xFFFFFFF2)  returns 0x00000001 (0000ms, 0666ms total)
T2A28 003:056 JLINK_SetBPEx(Addr = 0x0800648E, Type = 0xFFFFFFF2)  returns 0x00000002 (0000ms, 0667ms total)
T2A28 003:056 JLINK_SetBPEx(Addr = 0x08006482, Type = 0xFFFFFFF2)  returns 0x00000003 (0000ms, 0667ms total)
T2A28 003:056 JLINK_SetBPEx(Addr = 0x08007CC6, Type = 0xFFFFFFF2)  returns 0x00000004 (0000ms, 0667ms total)
T2A28 003:056 JLINK_SetBPEx(Addr = 0x08007CCE, Type = 0xFFFFFFF2)  returns 0x00000005 (0000ms, 0667ms total)
T2A28 003:056 JLINK_SetBPEx(Addr = 0x08007D36, Type = 0xFFFFFFF2)  returns 0x00000006 (0000ms, 0667ms total)
T2A28 003:056 JLINK_SetBPEx(Addr = 0x08007D3E, Type = 0xFFFFFFF2) -- BP[0] @ 0x080095CC converted into FlashBP  returns 0x00000007 (0000ms, 0667ms total)
T2A28 003:056 JLINK_Go() -- Read from C cache (2 bytes @ 0x0800019C) -- Read from C cache (4 bytes @ 0x080001B8) -- Simulated -- Read from C cache (2 bytes @ 0x0800019E) -- Simulated -- CPU_ReadMem(64 bytes @ 0x08007B80) -- Updating C cache (64 bytes @ 0x08007B80) -- Read from C cache (2 bytes @ 0x08007B9C) -- CPU_WriteMem(8 bytes @ 0x20010628) -- Simulated -- Read from C cache (2 bytes @ 0x08007B9E) -- CPU_ReadMem(64 bytes @ 0x08007BC0) -- Updating C cache (64 bytes @ 0x08007BC0)
 -- Read from C cache (4 bytes @ 0x08007BF4) -- Simulated -- Read from C cache (2 bytes @ 0x08007BA0) -- Not simulated -- CPU_ReadMem(16384 bytes @ 0x08008000) -- Updating C cache (16384 bytes @ 0x08008000) -- Read from C cache (16384 bytes @ 0x08008000) -- Updating flash cache (16384 bytes @ 0x08008000) -- Programming range 0x08008000 - 0x0800BFFF (001 Sector, 16 KB) -- CPU clock frequency: 15935 kHz -- CPU_WriteMem(4 bytes @ 0xE0002000) -- CPU_ReadMem(4 bytes @ 0xE0002008)
 -- CPU_WriteMem(4 bytes @ 0xE000EDF4) -- CPU_ReadMem(4 bytes @ 0xE000EDF8) -- CPU_WriteMem(4 bytes @ 0xE0002008) -- CPU_WriteMem(4 bytes @ 0xE000EDF8) -- CPU_WriteMem(4 bytes @ 0xE000EDF4) -- CPU_WriteMem(4 bytes @ 0xE000EDF0) -- CPU_WriteMem(4 bytes @ 0xE000EDF0) -- CPU_ReadMem(4 bytes @ 0xE000EDF0) -- CPU_WriteMem(4 bytes @ 0xE000EDF0) -- CPU_WriteMem(4 bytes @ 0xE0002008) -- CPU_WriteMem(4 bytes @ 0xE000EDF8) -- CPU_WriteMem(4 bytes @ 0xE000EDF4) -- CPU_WriteMem(4 bytes @ 0xE0002000)
 -- CPU_WriteMem(4 bytes @ 0xE0002000) -- CPU_WriteMem(4 bytes @ 0xE0002000) -- CPU_WriteMem(4 bytes @ 0xE0002000) -- CPU_WriteMem(4 bytes @ 0xE0002000) -- CPU_WriteMem(4 bytes @ 0xE0002000) -- CPU_ReadMem(4 bytes @ 0xE0001000) -- CPU_WriteMem(4 bytes @ 0xE0002008) -- CPU_WriteMem(4 bytes @ 0xE000200C) -- CPU_WriteMem(4 bytes @ 0xE0002010) -- CPU_WriteMem(4 bytes @ 0xE0002014) -- CPU_WriteMem(4 bytes @ 0xE0002018) -- CPU_WriteMem(4 bytes @ 0xE000201C) (0583ms, 1250ms total)
T2A28 003:739 JLINK_IsHalted()  returns TRUE (0001ms, 1251ms total)
T2A28 003:740 JLINK_Halt()  returns 0x00 (0000ms, 1250ms total)
T2A28 003:740 JLINK_IsHalted()  returns TRUE (0000ms, 1250ms total)
T2A28 003:740 JLINK_IsHalted()  returns TRUE (0000ms, 1250ms total)
T2A28 003:740 JLINK_IsHalted()  returns TRUE (0000ms, 1250ms total)
T2A28 003:740 JLINK_ReadReg(R15 (PC))  returns 0x080095CC (0000ms, 1250ms total)
T2A28 003:740 JLINK_ReadReg(XPSR)  returns 0x61000000 (0000ms, 1250ms total)
T2A28 003:740 JLINK_ClrBPEx(BPHandle = 0x00000001)  returns 0x00 (0000ms, 1250ms total)
T2A28 003:740 JLINK_ClrBPEx(BPHandle = 0x00000002)  returns 0x00 (0000ms, 1250ms total)
T2A28 003:741 JLINK_ClrBPEx(BPHandle = 0x00000003)  returns 0x00 (0000ms, 1251ms total)
T2A28 003:741 JLINK_ClrBPEx(BPHandle = 0x00000004)  returns 0x00 (0000ms, 1251ms total)
T2A28 003:741 JLINK_ClrBPEx(BPHandle = 0x00000005)  returns 0x00 (0000ms, 1251ms total)
T2A28 003:741 JLINK_ClrBPEx(BPHandle = 0x00000006)  returns 0x00 (0000ms, 1251ms total)
T2A28 003:741 JLINK_ClrBPEx(BPHandle = 0x00000007)  returns 0x00 (0000ms, 1251ms total)
T2A28 003:741 JLINK_ReadMemU32(0xE000ED30, 0x0001 Items, ...) -- CPU_ReadMem(4 bytes @ 0xE000ED30) - Data: 03 00 00 00  returns 0x01 (0000ms, 1251ms total)
T2A28 003:741 JLINK_ReadMemU32(0xE0001028, 0x0001 Items, ...) -- CPU_ReadMem(4 bytes @ 0xE0001028) - Data: 00 00 00 00  returns 0x01 (0001ms, 1252ms total)
T2A28 003:742 JLINK_ReadMemU32(0xE0001038, 0x0001 Items, ...) -- CPU_ReadMem(4 bytes @ 0xE0001038) - Data: 00 02 00 00  returns 0x01 (0000ms, 1252ms total)
T2A28 003:742 JLINK_ReadMemU32(0xE0001048, 0x0001 Items, ...) -- CPU_ReadMem(4 bytes @ 0xE0001048) - Data: 00 00 00 00  returns 0x01 (0002ms, 1254ms total)
T2A28 003:744 JLINK_ReadMemU32(0xE0001058, 0x0001 Items, ...) -- CPU_ReadMem(4 bytes @ 0xE0001058) - Data: 00 00 00 00  returns 0x01 (0000ms, 1254ms total)
T2A28 003:745 JLINK_ReadReg(R0)  returns 0x080095CD (0000ms, 1254ms total)
T2A28 003:745 JLINK_ReadReg(R1)  returns 0x20010630 (0000ms, 1254ms total)
T2A28 003:745 JLINK_ReadReg(R2)  returns 0x00000000 (0000ms, 1254ms total)
T2A28 003:745 JLINK_ReadReg(R3)  returns 0x0800914B (0000ms, 1254ms total)
T2A28 003:745 JLINK_ReadReg(R4)  returns 0x0800B07C (0000ms, 1254ms total)
T2A28 003:745 JLINK_ReadReg(R5)  returns 0x0800B07C (0000ms, 1254ms total)
T2A28 003:745 JLINK_ReadReg(R6)  returns 0x00000000 (0000ms, 1254ms total)
T2A28 003:745 JLINK_ReadReg(R7)  returns 0x00000000 (0000ms, 1254ms total)
T2A28 003:745 JLINK_ReadReg(R8)  returns 0x00000000 (0000ms, 1254ms total)
T2A28 003:745 JLINK_ReadReg(R9)  returns 0x00000000 (0000ms, 1254ms total)
T2A28 003:745 JLINK_ReadReg(R10)  returns 0x00000000 (0000ms, 1254ms total)
T2A28 003:745 JLINK_ReadReg(R11)  returns 0x00000000 (0000ms, 1254ms total)
T2A28 003:745 JLINK_ReadReg(R12)  returns 0x00000000 (0000ms, 1254ms total)
T2A28 003:745 JLINK_ReadReg(R13 (SP))  returns 0x20010630 (0000ms, 1254ms total)
T2A28 003:745 JLINK_ReadReg(R14)  returns 0x0800081D (0000ms, 1254ms total)
T2A28 003:745 JLINK_ReadReg(R15 (PC))  returns 0x080095CC (0000ms, 1254ms total)
T2A28 003:745 JLINK_ReadReg(XPSR)  returns 0x61000000 (0000ms, 1254ms total)
T2A28 003:745 JLINK_ReadReg(MSP)  returns 0x20010630 (0000ms, 1254ms total)
T2A28 003:745 JLINK_ReadReg(PSP)  returns 0x00000000 (0000ms, 1254ms total)
T2A28 003:745 JLINK_ReadReg(CFBP)  returns 0x00000000 (0000ms, 1254ms total)
T2A28 003:745 JLINK_ReadReg(FPSCR)  returns 0x00000000 (0002ms, 1256ms total)
T2A28 003:747 JLINK_ReadReg(FPS0)  returns 0x00000000 (0000ms, 1256ms total)
T2A28 003:747 JLINK_ReadReg(FPS1)  returns 0x00000000 (0000ms, 1256ms total)
T2A28 003:747 JLINK_ReadReg(FPS2)  returns 0x00000000 (0000ms, 1256ms total)
T2A28 003:747 JLINK_ReadReg(FPS3)  returns 0x00000000 (0000ms, 1256ms total)
T2A28 003:747 JLINK_ReadReg(FPS4)  returns 0x00000000 (0000ms, 1256ms total)
T2A28 003:747 JLINK_ReadReg(FPS5)  returns 0x00000000 (0000ms, 1256ms total)
T2A28 003:747 JLINK_ReadReg(FPS6)  returns 0x00000000 (0000ms, 1256ms total)
T2A28 003:747 JLINK_ReadReg(FPS7)  returns 0x00000000 (0000ms, 1256ms total)
T2A28 003:747 JLINK_ReadReg(FPS8)  returns 0x00000000 (0000ms, 1256ms total)
T2A28 003:747 JLINK_ReadReg(FPS9)  returns 0x00000000 (0000ms, 1256ms total)
T2A28 003:747 JLINK_ReadReg(FPS10)  returns 0x00000000 (0001ms, 1257ms total)
T2A28 003:748 JLINK_ReadReg(FPS11)  returns 0x00000000 (0000ms, 1257ms total)
T2A28 003:748 JLINK_ReadReg(FPS12)  returns 0x00000000 (0000ms, 1257ms total)
T2A28 003:748 JLINK_ReadReg(FPS13)  returns 0x00000000 (0000ms, 1257ms total)
T2A28 003:748 JLINK_ReadReg(FPS14)  returns 0x00000000 (0000ms, 1257ms total)
T2A28 003:748 JLINK_ReadReg(FPS15)  returns 0x00000000 (0000ms, 1257ms total)
T2A28 003:748 JLINK_ReadReg(FPS16)  returns 0x00000000 (0000ms, 1257ms total)
T2A28 003:748 JLINK_ReadReg(FPS17)  returns 0x00000000 (0000ms, 1257ms total)
T2A28 003:748 JLINK_ReadReg(FPS18)  returns 0x00000000 (0000ms, 1257ms total)
T2A28 003:748 JLINK_ReadReg(FPS19)  returns 0x00000000 (0000ms, 1257ms total)
T2A28 003:748 JLINK_ReadReg(FPS20)  returns 0x00000000 (0000ms, 1257ms total)
T2A28 003:748 JLINK_ReadReg(FPS21)  returns 0x00000000 (0000ms, 1257ms total)
T2A28 003:748 JLINK_ReadReg(FPS22)  returns 0x00000000 (0000ms, 1257ms total)
T2A28 003:748 JLINK_ReadReg(FPS23)  returns 0x00000000 (0000ms, 1257ms total)
T2A28 003:748 JLINK_ReadReg(FPS24)  returns 0x00000000 (0000ms, 1257ms total)
T2A28 003:748 JLINK_ReadReg(FPS25)  returns 0x00000000 (0000ms, 1257ms total)
T2A28 003:748 JLINK_ReadReg(FPS26)  returns 0x00000000 (0000ms, 1257ms total)
T2A28 003:748 JLINK_ReadReg(FPS27)  returns 0x00000000 (0000ms, 1257ms total)
T2A28 003:748 JLINK_ReadReg(FPS28)  returns 0x00000000 (0000ms, 1257ms total)
T2A28 003:748 JLINK_ReadReg(FPS29)  returns 0x00000000 (0000ms, 1257ms total)
T2A28 003:748 JLINK_ReadReg(FPS30)  returns 0x00000000 (0000ms, 1257ms total)
T2A28 003:748 JLINK_ReadReg(FPS31)  returns 0x00000000 (0000ms, 1257ms total)
T0A54 003:749 JLINK_ReadMem (0x080095CC, 0x003C Bytes, ...) -- Read from flash cache (60 bytes @ 0x080095CC) -- Merging zombie BP[0]: 0xB508 @ 0x080095CC - Data: 08 B5 FD F7 EF FA F0 20 01 23 14 22 15 A1 00 90 ...  returns 0x00 (0000ms, 1257ms total)
T2A28 007:528 JLINK_SetBPEx(Addr = 0x0800648E, Type = 0xFFFFFFF2)  returns 0x00000008 (0001ms, 1258ms total)
T2A28 007:529 JLINK_SetBPEx(Addr = 0x08006482, Type = 0xFFFFFFF2)  returns 0x00000009 (0000ms, 1258ms total)
T2A28 007:529 JLINK_SetBPEx(Addr = 0x08007CC6, Type = 0xFFFFFFF2)  returns 0x0000000A (0000ms, 1258ms total)
T2A28 007:529 JLINK_SetBPEx(Addr = 0x08007CCE, Type = 0xFFFFFFF2)  returns 0x0000000B (0000ms, 1258ms total)
T2A28 007:529 JLINK_SetBPEx(Addr = 0x08007D36, Type = 0xFFFFFFF2)  returns 0x0000000C (0000ms, 1258ms total)
T2A28 007:529 JLINK_SetBPEx(Addr = 0x08007D3E, Type = 0xFFFFFFF2)  returns 0x0000000D (0000ms, 1258ms total)
T2A28 007:529 JLINK_Go() -- Merging zombie BP[0]: 0xB508 @ 0x080095CC -- Merging zombie BP[0]: 0xB508 @ 0x080095CC -- CPU_ReadMem(4 bytes @ 0xE0001004) -- CPU_WriteMem(8 bytes @ 0x20010628) -- Simulated -- Read from flash cache (2 bytes @ 0x080095CE) -- Read from flash cache (2 bytes @ 0x080095D0) -- Simulated -- CPU_ReadMem(64 bytes @ 0x08006B80) -- Updating C cache (64 bytes @ 0x08006B80) -- Read from C cache (2 bytes @ 0x08006BB0) -- CPU_WriteMem(8 bytes @ 0x20010620) -- Simulated
 -- Read from C cache (2 bytes @ 0x08006BB2) -- Simulated -- Read from C cache (2 bytes @ 0x08006BB4) -- Simulated -- Read from C cache (2 bytes @ 0x08006BB6) -- Simulated -- Read from C cache (2 bytes @ 0x08006BB8) -- Simulated -- Read from C cache (2 bytes @ 0x08006BBA) -- CPU_WriteMem(4 bytes @ 0x20010620) -- Simulated -- Read from C cache (2 bytes @ 0x08006BBC) -- CPU_ReadMem(64 bytes @ 0x08006D00) -- Updating C cache (64 bytes @ 0x08006D00) -- Read from C cache (4 bytes @ 0x08006D1C) -- Simulated
 -- Read from C cache (2 bytes @ 0x08006BBE) -- CPU_ReadMem(64 bytes @ 0x08006BC0) -- Updating C cache (64 bytes @ 0x08006BC0) -- Read from C cache (2 bytes @ 0x08006BC0) -- Simulated -- Read from flash cache (16384 bytes @ 0x08008000) -- Programming range 0x08008000 - 0x0800BFFF (001 Sector, 16 KB) -- CPU clock frequency: 168012 kHz -- CPU_WriteMem(4 bytes @ 0xE0002000) -- CPU_ReadMem(4 bytes @ 0xE0002008) -- CPU_WriteMem(4 bytes @ 0xE000EDF4) -- CPU_ReadMem(4 bytes @ 0xE000EDF8)
 -- CPU_WriteMem(4 bytes @ 0xE0002008) -- CPU_WriteMem(4 bytes @ 0xE000EDF8) -- CPU_WriteMem(4 bytes @ 0xE000EDF4) -- CPU_WriteMem(4 bytes @ 0xE000EDF0) -- CPU_WriteMem(4 bytes @ 0xE000EDF0) -- CPU_ReadMem(4 bytes @ 0xE000EDF0) -- CPU_WriteMem(4 bytes @ 0xE000EDF0) -- CPU_WriteMem(4 bytes @ 0xE0002008) -- CPU_WriteMem(4 bytes @ 0xE000EDF8) -- CPU_WriteMem(4 bytes @ 0xE000EDF4) -- CPU_WriteMem(4 bytes @ 0xE0002000) -- CPU_WriteMem(4 bytes @ 0xE0002000) -- CPU_WriteMem(4 bytes @ 0xE0002000)
 -- CPU_WriteMem(4 bytes @ 0xE0002000) -- CPU_WriteMem(4 bytes @ 0xE0002000) -- CPU_WriteMem(4 bytes @ 0xE0002000) -- CPU_ReadMem(4 bytes @ 0xE0001000) -- CPU_WriteMem(4 bytes @ 0xE0002008) -- CPU_WriteMem(4 bytes @ 0xE000200C) -- CPU_WriteMem(4 bytes @ 0xE0002010) -- CPU_WriteMem(4 bytes @ 0xE0002014) -- CPU_WriteMem(4 bytes @ 0xE0002018) -- CPU_WriteMem(4 bytes @ 0xE000201C) (0534ms, 1792ms total)
T2A28 008:163 JLINK_IsHalted()  returns FALSE (0000ms, 1792ms total)
T2A28 008:263 JLINK_IsHalted()  returns FALSE (0000ms, 1792ms total)
T2A28 008:363 JLINK_IsHalted()  returns TRUE (0002ms, 1794ms total)
T2A28 008:365 JLINK_Halt()  returns 0x00 (0000ms, 1792ms total)
T2A28 008:365 JLINK_IsHalted()  returns TRUE (0000ms, 1792ms total)
T2A28 008:365 JLINK_IsHalted()  returns TRUE (0000ms, 1792ms total)
T2A28 008:365 JLINK_IsHalted()  returns TRUE (0000ms, 1792ms total)
T2A28 008:365 JLINK_ReadReg(R15 (PC))  returns 0x08007CC6 (0000ms, 1792ms total)
T2A28 008:365 JLINK_ReadReg(XPSR)  returns 0x4100002D (0000ms, 1792ms total)
T2A28 008:365 JLINK_ClrBPEx(BPHandle = 0x00000008)  returns 0x00 (0000ms, 1792ms total)
T2A28 008:365 JLINK_ClrBPEx(BPHandle = 0x00000009)  returns 0x00 (0000ms, 1792ms total)
T2A28 008:365 JLINK_ClrBPEx(BPHandle = 0x0000000A)  returns 0x00 (0000ms, 1792ms total)
T2A28 008:365 JLINK_ClrBPEx(BPHandle = 0x0000000B)  returns 0x00 (0000ms, 1792ms total)
T2A28 008:365 JLINK_ClrBPEx(BPHandle = 0x0000000C)  returns 0x00 (0000ms, 1792ms total)
T2A28 008:365 JLINK_ClrBPEx(BPHandle = 0x0000000D)  returns 0x00 (0000ms, 1792ms total)
T2A28 008:365 JLINK_ReadMemU32(0xE000ED30, 0x0001 Items, ...) -- CPU_ReadMem(4 bytes @ 0xE000ED30) - Data: 03 00 00 00  returns 0x01 (0001ms, 1793ms total)
T2A28 008:366 JLINK_ReadMemU32(0xE0001028, 0x0001 Items, ...) -- CPU_ReadMem(4 bytes @ 0xE0001028) - Data: 00 00 00 00  returns 0x01 (0000ms, 1793ms total)
T2A28 008:366 JLINK_ReadMemU32(0xE0001038, 0x0001 Items, ...) -- CPU_ReadMem(4 bytes @ 0xE0001038) - Data: 00 02 00 00  returns 0x01 (0001ms, 1794ms total)
T2A28 008:367 JLINK_ReadMemU32(0xE0001048, 0x0001 Items, ...) -- CPU_ReadMem(4 bytes @ 0xE0001048) - Data: 00 00 00 00  returns 0x01 (0001ms, 1795ms total)
T2A28 008:368 JLINK_ReadMemU32(0xE0001058, 0x0001 Items, ...) -- CPU_ReadMem(4 bytes @ 0xE0001058) - Data: 00 00 00 00  returns 0x01 (0000ms, 1795ms total)
T2A28 008:369 JLINK_ReadReg(R0)  returns 0x20010608 (0000ms, 1795ms total)
T2A28 008:369 JLINK_ReadReg(R1)  returns 0x000000F0 (0000ms, 1795ms total)
T2A28 008:369 JLINK_ReadReg(R2)  returns 0x00000001 (0000ms, 1795ms total)
T2A28 008:369 JLINK_ReadReg(R3)  returns 0x00000001 (0000ms, 1795ms total)
T2A28 008:369 JLINK_ReadReg(R4)  returns 0x20000000 (0000ms, 1795ms total)
T2A28 008:369 JLINK_ReadReg(R5)  returns 0xE000E000 (0000ms, 1795ms total)
T2A28 008:369 JLINK_ReadReg(R6)  returns 0x00000000 (0000ms, 1795ms total)
T2A28 008:369 JLINK_ReadReg(R7)  returns 0x00000000 (0000ms, 1795ms total)
T2A28 008:369 JLINK_ReadReg(R8)  returns 0x00000000 (0000ms, 1795ms total)
T2A28 008:369 JLINK_ReadReg(R9)  returns 0x00000000 (0000ms, 1795ms total)
T2A28 008:369 JLINK_ReadReg(R10)  returns 0x00000000 (0000ms, 1795ms total)
T2A28 008:369 JLINK_ReadReg(R11)  returns 0x00000000 (0000ms, 1795ms total)
T2A28 008:369 JLINK_ReadReg(R12)  returns 0x00000006 (0000ms, 1795ms total)
T2A28 008:369 JLINK_ReadReg(R13 (SP))  returns 0x200105D0 (0000ms, 1795ms total)
T2A28 008:369 JLINK_ReadReg(R14)  returns 0xFFFFFFF9 (0000ms, 1795ms total)
T2A28 008:369 JLINK_ReadReg(R15 (PC))  returns 0x08007CC6 (0000ms, 1795ms total)
T2A28 008:369 JLINK_ReadReg(XPSR)  returns 0x4100002D (0000ms, 1795ms total)
T2A28 008:369 JLINK_ReadReg(MSP)  returns 0x200105D0 (0000ms, 1795ms total)
T2A28 008:369 JLINK_ReadReg(PSP)  returns 0x00000000 (0000ms, 1795ms total)
T2A28 008:369 JLINK_ReadReg(CFBP)  returns 0x00000000 (0000ms, 1795ms total)
T2A28 008:369 JLINK_ReadReg(FPSCR)  returns 0x00000000 (0002ms, 1797ms total)
T2A28 008:371 JLINK_ReadReg(FPS0)  returns 0x00000000 (0000ms, 1797ms total)
T2A28 008:371 JLINK_ReadReg(FPS1)  returns 0x00000000 (0000ms, 1797ms total)
T2A28 008:371 JLINK_ReadReg(FPS2)  returns 0x00000000 (0000ms, 1797ms total)
T2A28 008:371 JLINK_ReadReg(FPS3)  returns 0x00000000 (0000ms, 1797ms total)
T2A28 008:371 JLINK_ReadReg(FPS4)  returns 0x00000000 (0000ms, 1797ms total)
T2A28 008:371 JLINK_ReadReg(FPS5)  returns 0x00000000 (0001ms, 1798ms total)
T2A28 008:372 JLINK_ReadReg(FPS6)  returns 0x00000000 (0000ms, 1798ms total)
T2A28 008:372 JLINK_ReadReg(FPS7)  returns 0x00000000 (0000ms, 1798ms total)
T2A28 008:372 JLINK_ReadReg(FPS8)  returns 0x00000000 (0000ms, 1798ms total)
T2A28 008:372 JLINK_ReadReg(FPS9)  returns 0x00000000 (0000ms, 1798ms total)
T2A28 008:372 JLINK_ReadReg(FPS10)  returns 0x00000000 (0000ms, 1798ms total)
T2A28 008:372 JLINK_ReadReg(FPS11)  returns 0x00000000 (0000ms, 1798ms total)
T2A28 008:372 JLINK_ReadReg(FPS12)  returns 0x00000000 (0000ms, 1798ms total)
T2A28 008:372 JLINK_ReadReg(FPS13)  returns 0x00000000 (0000ms, 1798ms total)
T2A28 008:372 JLINK_ReadReg(FPS14)  returns 0x00000000 (0000ms, 1798ms total)
T2A28 008:372 JLINK_ReadReg(FPS15)  returns 0x00000000 (0000ms, 1798ms total)
T2A28 008:372 JLINK_ReadReg(FPS16)  returns 0x00000000 (0000ms, 1798ms total)
T2A28 008:372 JLINK_ReadReg(FPS17)  returns 0x00000000 (0000ms, 1798ms total)
T2A28 008:372 JLINK_ReadReg(FPS18)  returns 0x00000000 (0000ms, 1798ms total)
T2A28 008:372 JLINK_ReadReg(FPS19)  returns 0x00000000 (0000ms, 1798ms total)
T2A28 008:372 JLINK_ReadReg(FPS20)  returns 0x00000000 (0000ms, 1798ms total)
T2A28 008:372 JLINK_ReadReg(FPS21)  returns 0x00000000 (0000ms, 1798ms total)
T2A28 008:372 JLINK_ReadReg(FPS22)  returns 0x00000000 (0000ms, 1798ms total)
T2A28 008:372 JLINK_ReadReg(FPS23)  returns 0x00000000 (0000ms, 1798ms total)
T2A28 008:372 JLINK_ReadReg(FPS24)  returns 0x00000000 (0000ms, 1798ms total)
T2A28 008:372 JLINK_ReadReg(FPS25)  returns 0x00000000 (0000ms, 1798ms total)
T2A28 008:372 JLINK_ReadReg(FPS26)  returns 0x00000000 (0000ms, 1798ms total)
T2A28 008:372 JLINK_ReadReg(FPS27)  returns 0x00000000 (0000ms, 1798ms total)
T2A28 008:372 JLINK_ReadReg(FPS28)  returns 0x00000000 (0000ms, 1798ms total)
T2A28 008:372 JLINK_ReadReg(FPS29)  returns 0x00000000 (0000ms, 1798ms total)
T2A28 008:372 JLINK_ReadReg(FPS30)  returns 0x00000000 (0000ms, 1798ms total)
T2A28 008:372 JLINK_ReadReg(FPS31)  returns 0x00000000 (0000ms, 1798ms total)
T0A54 008:372 JLINK_ReadMem (0x08007CC6, 0x0002 Bytes, ...) -- CPU_ReadMem(64 bytes @ 0x08007CC0) -- Updating C cache (64 bytes @ 0x08007CC0) -- Read from C cache (2 bytes @ 0x08007CC6) - Data: 01 21  returns 0x00 (0001ms, 1799ms total)
T0A54 008:373 JLINK_ReadMem (0x08007CC8, 0x003C Bytes, ...) -- CPU_ReadMem(64 bytes @ 0x08007D00) -- Updating C cache (64 bytes @ 0x08007D00) -- Read from C cache (60 bytes @ 0x08007CC8) - Data: 02 48 00 F0 3D F8 FE F7 B3 FD 10 BD 00 04 00 40 ...  returns 0x00 (0002ms, 1801ms total)
T2A28 008:969 JLINK_Step() -- Read from C cache (2 bytes @ 0x08007CC6) -- CPU_ReadMem(4 bytes @ 0xE0001004) -- Simulated  returns 0x00 (0002ms, 1803ms total)
T2A28 008:971 JLINK_ReadReg(R15 (PC))  returns 0x08007CC8 (0000ms, 1803ms total)
T2A28 008:971 JLINK_ReadReg(XPSR)  returns 0x0100002D (0000ms, 1803ms total)
T2A28 008:971 JLINK_SetBPEx(Addr = 0x0800648E, Type = 0xFFFFFFF2)  returns 0x0000000E (0000ms, 1803ms total)
T2A28 008:971 JLINK_SetBPEx(Addr = 0x08006482, Type = 0xFFFFFFF2)  returns 0x0000000F (0000ms, 1803ms total)
T2A28 008:971 JLINK_SetBPEx(Addr = 0x08007CC6, Type = 0xFFFFFFF2)  returns 0x00000010 (0000ms, 1803ms total)
T2A28 008:971 JLINK_SetBPEx(Addr = 0x08007CCE, Type = 0xFFFFFFF2)  returns 0x00000011 (0000ms, 1803ms total)
T2A28 008:971 JLINK_SetBPEx(Addr = 0x08007D36, Type = 0xFFFFFFF2)  returns 0x00000012 (0000ms, 1803ms total)
T2A28 008:971 JLINK_SetBPEx(Addr = 0x08007D3E, Type = 0xFFFFFFF2)  returns 0x00000013 (0000ms, 1803ms total)
T2A28 008:971 JLINK_Go() -- CPU_WriteMem(4 bytes @ 0xE0002000) -- CPU_WriteMem(4 bytes @ 0xE0002000) -- CPU_WriteMem(4 bytes @ 0xE0002000) -- CPU_WriteMem(4 bytes @ 0xE0002000) -- CPU_WriteMem(4 bytes @ 0xE0002000) -- CPU_WriteMem(4 bytes @ 0xE0002000) -- CPU_ReadMem(4 bytes @ 0xE0001000) -- CPU_WriteMem(4 bytes @ 0xE0001004) (0006ms, 1809ms total)
T2A28 009:077 JLINK_IsHalted()  returns TRUE (0001ms, 1810ms total)
T2A28 009:078 JLINK_Halt()  returns 0x00 (0000ms, 1809ms total)
T2A28 009:078 JLINK_IsHalted()  returns TRUE (0000ms, 1809ms total)
T2A28 009:078 JLINK_IsHalted()  returns TRUE (0000ms, 1809ms total)
T2A28 009:078 JLINK_IsHalted()  returns TRUE (0000ms, 1809ms total)
T2A28 009:078 JLINK_ReadReg(R15 (PC))  returns 0x08007CCE (0000ms, 1809ms total)
T2A28 009:078 JLINK_ReadReg(XPSR)  returns 0x8100002D (0000ms, 1809ms total)
T2A28 009:078 JLINK_ClrBPEx(BPHandle = 0x0000000E)  returns 0x00 (0000ms, 1809ms total)
T2A28 009:078 JLINK_ClrBPEx(BPHandle = 0x0000000F)  returns 0x00 (0000ms, 1809ms total)
T2A28 009:078 JLINK_ClrBPEx(BPHandle = 0x00000010)  returns 0x00 (0000ms, 1809ms total)
T2A28 009:078 JLINK_ClrBPEx(BPHandle = 0x00000011)  returns 0x00 (0001ms, 1810ms total)
T2A28 009:079 JLINK_ClrBPEx(BPHandle = 0x00000012)  returns 0x00 (0000ms, 1810ms total)
T2A28 009:079 JLINK_ClrBPEx(BPHandle = 0x00000013)  returns 0x00 (0000ms, 1810ms total)
T2A28 009:079 JLINK_ReadMemU32(0xE000ED30, 0x0001 Items, ...) -- CPU_ReadMem(4 bytes @ 0xE000ED30) - Data: 03 00 00 00  returns 0x01 (0000ms, 1810ms total)
T2A28 009:079 JLINK_ReadMemU32(0xE0001028, 0x0001 Items, ...) -- CPU_ReadMem(4 bytes @ 0xE0001028) - Data: 00 00 00 00  returns 0x01 (0001ms, 1811ms total)
T2A28 009:080 JLINK_ReadMemU32(0xE0001038, 0x0001 Items, ...) -- CPU_ReadMem(4 bytes @ 0xE0001038) - Data: 00 02 00 00  returns 0x01 (0000ms, 1811ms total)
T2A28 009:080 JLINK_ReadMemU32(0xE0001048, 0x0001 Items, ...) -- CPU_ReadMem(4 bytes @ 0xE0001048) - Data: 00 00 00 00  returns 0x01 (0001ms, 1812ms total)
T2A28 009:081 JLINK_ReadMemU32(0xE0001058, 0x0001 Items, ...) -- CPU_ReadMem(4 bytes @ 0xE0001058) - Data: 00 00 00 00  returns 0x01 (0001ms, 1813ms total)
T2A28 009:082 JLINK_ReadReg(R0)  returns 0x40000400 (0000ms, 1813ms total)
T2A28 009:082 JLINK_ReadReg(R1)  returns 0x00000001 (0000ms, 1813ms total)
T2A28 009:082 JLINK_ReadReg(R2)  returns 0xFFFFFFFE (0000ms, 1813ms total)
T2A28 009:082 JLINK_ReadReg(R3)  returns 0x00000001 (0000ms, 1813ms total)
T2A28 009:082 JLINK_ReadReg(R4)  returns 0x20000000 (0000ms, 1813ms total)
T2A28 009:082 JLINK_ReadReg(R5)  returns 0xE000E000 (0000ms, 1813ms total)
T2A28 009:082 JLINK_ReadReg(R6)  returns 0x00000000 (0000ms, 1813ms total)
T2A28 009:082 JLINK_ReadReg(R7)  returns 0x00000000 (0000ms, 1813ms total)
T2A28 009:082 JLINK_ReadReg(R8)  returns 0x00000000 (0000ms, 1813ms total)
T2A28 009:082 JLINK_ReadReg(R9)  returns 0x00000000 (0000ms, 1813ms total)
T2A28 009:082 JLINK_ReadReg(R10)  returns 0x00000000 (0000ms, 1813ms total)
T2A28 009:082 JLINK_ReadReg(R11)  returns 0x00000000 (0000ms, 1813ms total)
T2A28 009:082 JLINK_ReadReg(R12)  returns 0x00000006 (0000ms, 1813ms total)
T2A28 009:082 JLINK_ReadReg(R13 (SP))  returns 0x200105D0 (0000ms, 1813ms total)
T2A28 009:082 JLINK_ReadReg(R14)  returns 0x08007CCF (0000ms, 1813ms total)
T2A28 009:082 JLINK_ReadReg(R15 (PC))  returns 0x08007CCE (0000ms, 1813ms total)
T2A28 009:082 JLINK_ReadReg(XPSR)  returns 0x8100002D (0000ms, 1813ms total)
T2A28 009:082 JLINK_ReadReg(MSP)  returns 0x200105D0 (0000ms, 1813ms total)
T2A28 009:082 JLINK_ReadReg(PSP)  returns 0x00000000 (0000ms, 1813ms total)
T2A28 009:082 JLINK_ReadReg(CFBP)  returns 0x00000000 (0000ms, 1813ms total)
T2A28 009:082 JLINK_ReadReg(FPSCR)  returns 0x00000000 (0002ms, 1815ms total)
T2A28 009:084 JLINK_ReadReg(FPS0)  returns 0x00000000 (0000ms, 1815ms total)
T2A28 009:084 JLINK_ReadReg(FPS1)  returns 0x00000000 (0000ms, 1815ms total)
T2A28 009:084 JLINK_ReadReg(FPS2)  returns 0x00000000 (0000ms, 1815ms total)
T2A28 009:084 JLINK_ReadReg(FPS3)  returns 0x00000000 (0000ms, 1815ms total)
T2A28 009:084 JLINK_ReadReg(FPS4)  returns 0x00000000 (0000ms, 1815ms total)
T2A28 009:084 JLINK_ReadReg(FPS5)  returns 0x00000000 (0000ms, 1815ms total)
T2A28 009:084 JLINK_ReadReg(FPS6)  returns 0x00000000 (0000ms, 1815ms total)
T2A28 009:084 JLINK_ReadReg(FPS7)  returns 0x00000000 (0000ms, 1815ms total)
T2A28 009:084 JLINK_ReadReg(FPS8)  returns 0x00000000 (0000ms, 1815ms total)
T2A28 009:084 JLINK_ReadReg(FPS9)  returns 0x00000000 (0000ms, 1815ms total)
T2A28 009:084 JLINK_ReadReg(FPS10)  returns 0x00000000 (0000ms, 1815ms total)
T2A28 009:084 JLINK_ReadReg(FPS11)  returns 0x00000000 (0000ms, 1815ms total)
T2A28 009:084 JLINK_ReadReg(FPS12)  returns 0x00000000 (0000ms, 1815ms total)
T2A28 009:084 JLINK_ReadReg(FPS13)  returns 0x00000000 (0001ms, 1816ms total)
T2A28 009:085 JLINK_ReadReg(FPS14)  returns 0x00000000 (0000ms, 1816ms total)
T2A28 009:085 JLINK_ReadReg(FPS15)  returns 0x00000000 (0000ms, 1816ms total)
T2A28 009:085 JLINK_ReadReg(FPS16)  returns 0x00000000 (0000ms, 1816ms total)
T2A28 009:085 JLINK_ReadReg(FPS17)  returns 0x00000000 (0000ms, 1816ms total)
T2A28 009:085 JLINK_ReadReg(FPS18)  returns 0x00000000 (0000ms, 1816ms total)
T2A28 009:085 JLINK_ReadReg(FPS19)  returns 0x00000000 (0000ms, 1816ms total)
T2A28 009:085 JLINK_ReadReg(FPS20)  returns 0x00000000 (0000ms, 1816ms total)
T2A28 009:085 JLINK_ReadReg(FPS21)  returns 0x00000000 (0000ms, 1816ms total)
T2A28 009:085 JLINK_ReadReg(FPS22)  returns 0x00000000 (0000ms, 1816ms total)
T2A28 009:085 JLINK_ReadReg(FPS23)  returns 0x00000000 (0000ms, 1816ms total)
T2A28 009:085 JLINK_ReadReg(FPS24)  returns 0x00000000 (0000ms, 1816ms total)
T2A28 009:085 JLINK_ReadReg(FPS25)  returns 0x00000000 (0000ms, 1816ms total)
T2A28 009:085 JLINK_ReadReg(FPS26)  returns 0x00000000 (0000ms, 1816ms total)
T2A28 009:085 JLINK_ReadReg(FPS27)  returns 0x00000000 (0000ms, 1816ms total)
T2A28 009:085 JLINK_ReadReg(FPS28)  returns 0x00000000 (0000ms, 1816ms total)
T2A28 009:085 JLINK_ReadReg(FPS29)  returns 0x00000000 (0000ms, 1816ms total)
T2A28 009:085 JLINK_ReadReg(FPS30)  returns 0x00000000 (0000ms, 1816ms total)
T2A28 009:085 JLINK_ReadReg(FPS31)  returns 0x00000000 (0000ms, 1816ms total)
T0A54 009:085 JLINK_ReadMem (0x08007CCE, 0x0002 Bytes, ...) -- CPU_ReadMem(64 bytes @ 0x08007CC0) -- Updating C cache (64 bytes @ 0x08007CC0) -- Read from C cache (2 bytes @ 0x08007CCE) - Data: FE F7  returns 0x00 (0001ms, 1817ms total)
T0A54 009:086 JLINK_ReadMem (0x08007CD0, 0x003C Bytes, ...) -- CPU_ReadMem(64 bytes @ 0x08007D00) -- Updating C cache (64 bytes @ 0x08007D00) -- Read from C cache (60 bytes @ 0x08007CD0) - Data: B3 FD 10 BD 00 04 00 40 1F B5 01 21 04 20 FF F7 ...  returns 0x00 (0000ms, 1817ms total)
T2A28 009:467 JLINK_Step() -- Read from C cache (2 bytes @ 0x08007CCE) -- CPU_ReadMem(4 bytes @ 0xE0001004) -- Read from C cache (2 bytes @ 0x08007CD0) -- Simulated  returns 0x00 (0001ms, 1818ms total)
T2A28 009:468 JLINK_ReadReg(R15 (PC))  returns 0x08006838 (0000ms, 1818ms total)
T2A28 009:468 JLINK_ReadReg(XPSR)  returns 0x8100002D (0000ms, 1818ms total)
T2A28 009:468 JLINK_SetBPEx(Addr = 0x0800648E, Type = 0xFFFFFFF2)  returns 0x00000014 (0000ms, 1818ms total)
T2A28 009:468 JLINK_SetBPEx(Addr = 0x08006482, Type = 0xFFFFFFF2)  returns 0x00000015 (0000ms, 1818ms total)
T2A28 009:468 JLINK_SetBPEx(Addr = 0x08007CC6, Type = 0xFFFFFFF2)  returns 0x00000016 (0000ms, 1818ms total)
T2A28 009:468 JLINK_SetBPEx(Addr = 0x08007CCE, Type = 0xFFFFFFF2)  returns 0x00000017 (0000ms, 1818ms total)
T2A28 009:468 JLINK_SetBPEx(Addr = 0x08007D36, Type = 0xFFFFFFF2)  returns 0x00000018 (0000ms, 1818ms total)
T2A28 009:468 JLINK_SetBPEx(Addr = 0x08007D3E, Type = 0xFFFFFFF2)  returns 0x00000019 (0000ms, 1818ms total)
T2A28 009:468 JLINK_Go() -- CPU_WriteMem(4 bytes @ 0xE0002000) -- CPU_WriteMem(4 bytes @ 0xE0002000) -- CPU_WriteMem(4 bytes @ 0xE0002000) -- CPU_WriteMem(4 bytes @ 0xE0002000) -- CPU_WriteMem(4 bytes @ 0xE0002000) -- CPU_WriteMem(4 bytes @ 0xE0002000) -- CPU_ReadMem(4 bytes @ 0xE0001000) -- CPU_WriteMem(4 bytes @ 0xE0001004) (0005ms, 1823ms total)
T2A28 009:573 JLINK_IsHalted()  returns TRUE (0001ms, 1824ms total)
T2A28 009:574 JLINK_Halt()  returns 0x00 (0000ms, 1823ms total)
T2A28 009:574 JLINK_IsHalted()  returns TRUE (0000ms, 1823ms total)
T2A28 009:574 JLINK_IsHalted()  returns TRUE (0000ms, 1823ms total)
T2A28 009:574 JLINK_IsHalted()  returns TRUE (0000ms, 1823ms total)
T2A28 009:574 JLINK_ReadReg(R15 (PC))  returns 0x08007CC6 (0000ms, 1823ms total)
T2A28 009:574 JLINK_ReadReg(XPSR)  returns 0x6100002D (0000ms, 1823ms total)
T2A28 009:574 JLINK_ClrBPEx(BPHandle = 0x00000014)  returns 0x00 (0000ms, 1823ms total)
T2A28 009:574 JLINK_ClrBPEx(BPHandle = 0x00000015)  returns 0x00 (0000ms, 1823ms total)
T2A28 009:574 JLINK_ClrBPEx(BPHandle = 0x00000016)  returns 0x00 (0000ms, 1823ms total)
T2A28 009:574 JLINK_ClrBPEx(BPHandle = 0x00000017)  returns 0x00 (0000ms, 1823ms total)
T2A28 009:574 JLINK_ClrBPEx(BPHandle = 0x00000018)  returns 0x00 (0000ms, 1823ms total)
T2A28 009:574 JLINK_ClrBPEx(BPHandle = 0x00000019)  returns 0x00 (0000ms, 1823ms total)
T2A28 009:574 JLINK_ReadMemU32(0xE000ED30, 0x0001 Items, ...) -- CPU_ReadMem(4 bytes @ 0xE000ED30) - Data: 03 00 00 00  returns 0x01 (0001ms, 1824ms total)
T2A28 009:575 JLINK_ReadMemU32(0xE0001028, 0x0001 Items, ...) -- CPU_ReadMem(4 bytes @ 0xE0001028) - Data: 00 00 00 00  returns 0x01 (0001ms, 1825ms total)
T2A28 009:576 JLINK_ReadMemU32(0xE0001038, 0x0001 Items, ...) -- CPU_ReadMem(4 bytes @ 0xE0001038) - Data: 00 02 00 00  returns 0x01 (0000ms, 1825ms total)
T2A28 009:576 JLINK_ReadMemU32(0xE0001048, 0x0001 Items, ...) -- CPU_ReadMem(4 bytes @ 0xE0001048) - Data: 00 00 00 00  returns 0x01 (0001ms, 1826ms total)
T2A28 009:577 JLINK_ReadMemU32(0xE0001058, 0x0001 Items, ...) -- CPU_ReadMem(4 bytes @ 0xE0001058) - Data: 00 00 00 00  returns 0x01 (0000ms, 1826ms total)
T2A28 009:578 JLINK_ReadReg(R0)  returns 0x0000002A (0000ms, 1826ms total)
T2A28 009:578 JLINK_ReadReg(R1)  returns 0x20000296 (0000ms, 1826ms total)
T2A28 009:578 JLINK_ReadReg(R2)  returns 0x00000000 (0000ms, 1826ms total)
T2A28 009:578 JLINK_ReadReg(R3)  returns 0x00000036 (0000ms, 1826ms total)
T2A28 009:578 JLINK_ReadReg(R4)  returns 0x00000039 (0000ms, 1826ms total)
T2A28 009:578 JLINK_ReadReg(R5)  returns 0x00000037 (0000ms, 1826ms total)
T2A28 009:578 JLINK_ReadReg(R6)  returns 0x00000000 (0000ms, 1826ms total)
T2A28 009:578 JLINK_ReadReg(R7)  returns 0x00000049 (0000ms, 1826ms total)
T2A28 009:578 JLINK_ReadReg(R8)  returns 0x00000039 (0000ms, 1826ms total)
T2A28 009:578 JLINK_ReadReg(R9)  returns 0x00000000 (0000ms, 1826ms total)
T2A28 009:578 JLINK_ReadReg(R10)  returns 0x00000007 (0000ms, 1826ms total)
T2A28 009:578 JLINK_ReadReg(R11)  returns 0x00000030 (0000ms, 1826ms total)
T2A28 009:578 JLINK_ReadReg(R12)  returns 0x00000006 (0000ms, 1826ms total)
T2A28 009:578 JLINK_ReadReg(R13 (SP))  returns 0x20010568 (0000ms, 1826ms total)
T2A28 009:578 JLINK_ReadReg(R14)  returns 0xFFFFFFF9 (0000ms, 1826ms total)
T2A28 009:578 JLINK_ReadReg(R15 (PC))  returns 0x08007CC6 (0000ms, 1826ms total)
T2A28 009:578 JLINK_ReadReg(XPSR)  returns 0x6100002D (0000ms, 1826ms total)
T2A28 009:578 JLINK_ReadReg(MSP)  returns 0x20010568 (0000ms, 1826ms total)
T2A28 009:578 JLINK_ReadReg(PSP)  returns 0x00000000 (0000ms, 1826ms total)
T2A28 009:578 JLINK_ReadReg(CFBP)  returns 0x00000000 (0000ms, 1826ms total)
T2A28 009:578 JLINK_ReadReg(FPSCR)  returns 0x00000000 (0002ms, 1828ms total)
T2A28 009:580 JLINK_ReadReg(FPS0)  returns 0x00000000 (0000ms, 1828ms total)
T2A28 009:580 JLINK_ReadReg(FPS1)  returns 0x00000000 (0000ms, 1828ms total)
T2A28 009:580 JLINK_ReadReg(FPS2)  returns 0x00000000 (0000ms, 1828ms total)
T2A28 009:580 JLINK_ReadReg(FPS3)  returns 0x00000000 (0000ms, 1828ms total)
T2A28 009:580 JLINK_ReadReg(FPS4)  returns 0x00000000 (0000ms, 1828ms total)
T2A28 009:580 JLINK_ReadReg(FPS5)  returns 0x00000000 (0000ms, 1828ms total)
T2A28 009:580 JLINK_ReadReg(FPS6)  returns 0x00000000 (0000ms, 1828ms total)
T2A28 009:580 JLINK_ReadReg(FPS7)  returns 0x00000000 (0000ms, 1828ms total)
T2A28 009:580 JLINK_ReadReg(FPS8)  returns 0x00000000 (0000ms, 1828ms total)
T2A28 009:580 JLINK_ReadReg(FPS9)  returns 0x00000000 (0000ms, 1828ms total)
T2A28 009:580 JLINK_ReadReg(FPS10)  returns 0x00000000 (0000ms, 1828ms total)
T2A28 009:580 JLINK_ReadReg(FPS11)  returns 0x00000000 (0000ms, 1828ms total)
T2A28 009:580 JLINK_ReadReg(FPS12)  returns 0x00000000 (0000ms, 1828ms total)
T2A28 009:580 JLINK_ReadReg(FPS13)  returns 0x00000000 (0001ms, 1829ms total)
T2A28 009:581 JLINK_ReadReg(FPS14)  returns 0x00000000 (0000ms, 1829ms total)
T2A28 009:581 JLINK_ReadReg(FPS15)  returns 0x00000000 (0000ms, 1829ms total)
T2A28 009:581 JLINK_ReadReg(FPS16)  returns 0x00000000 (0000ms, 1829ms total)
T2A28 009:581 JLINK_ReadReg(FPS17)  returns 0x00000000 (0000ms, 1829ms total)
T2A28 009:581 JLINK_ReadReg(FPS18)  returns 0x00000000 (0000ms, 1829ms total)
T2A28 009:581 JLINK_ReadReg(FPS19)  returns 0x00000000 (0000ms, 1829ms total)
T2A28 009:581 JLINK_ReadReg(FPS20)  returns 0x00000000 (0000ms, 1829ms total)
T2A28 009:581 JLINK_ReadReg(FPS21)  returns 0x00000000 (0000ms, 1829ms total)
T2A28 009:581 JLINK_ReadReg(FPS22)  returns 0x00000000 (0000ms, 1829ms total)
T2A28 009:581 JLINK_ReadReg(FPS23)  returns 0x00000000 (0000ms, 1829ms total)
T2A28 009:581 JLINK_ReadReg(FPS24)  returns 0x00000000 (0000ms, 1829ms total)
T2A28 009:581 JLINK_ReadReg(FPS25)  returns 0x00000000 (0000ms, 1829ms total)
T2A28 009:581 JLINK_ReadReg(FPS26)  returns 0x00000000 (0000ms, 1829ms total)
T2A28 009:581 JLINK_ReadReg(FPS27)  returns 0x00000000 (0000ms, 1829ms total)
T2A28 009:581 JLINK_ReadReg(FPS28)  returns 0x00000000 (0000ms, 1829ms total)
T2A28 009:581 JLINK_ReadReg(FPS29)  returns 0x00000000 (0000ms, 1829ms total)
T2A28 009:581 JLINK_ReadReg(FPS30)  returns 0x00000000 (0000ms, 1829ms total)
T2A28 009:581 JLINK_ReadReg(FPS31)  returns 0x00000000 (0000ms, 1829ms total)
T0A54 009:582 JLINK_ReadMem (0x08007CC6, 0x0002 Bytes, ...) -- CPU_ReadMem(64 bytes @ 0x08007CC0) -- Updating C cache (64 bytes @ 0x08007CC0) -- Read from C cache (2 bytes @ 0x08007CC6) - Data: 01 21  returns 0x00 (0001ms, 1830ms total)
T0A54 009:583 JLINK_ReadMem (0x08007CC8, 0x003C Bytes, ...) -- CPU_ReadMem(64 bytes @ 0x08007D00) -- Updating C cache (64 bytes @ 0x08007D00) -- Read from C cache (60 bytes @ 0x08007CC8) - Data: 02 48 00 F0 3D F8 FE F7 B3 FD 10 BD 00 04 00 40 ...  returns 0x00 (0001ms, 1831ms total)
T2A28 010:185 JLINK_Step() -- Read from C cache (2 bytes @ 0x08007CC6) -- CPU_ReadMem(4 bytes @ 0xE0001004) -- Simulated  returns 0x00 (0002ms, 1833ms total)
T2A28 010:187 JLINK_ReadReg(R15 (PC))  returns 0x08007CC8 (0000ms, 1833ms total)
T2A28 010:187 JLINK_ReadReg(XPSR)  returns 0x2100002D (0000ms, 1833ms total)
T2A28 010:187 JLINK_SetBPEx(Addr = 0x0800648E, Type = 0xFFFFFFF2)  returns 0x0000001A (0000ms, 1833ms total)
T2A28 010:187 JLINK_SetBPEx(Addr = 0x08006482, Type = 0xFFFFFFF2)  returns 0x0000001B (0000ms, 1833ms total)
T2A28 010:187 JLINK_SetBPEx(Addr = 0x08007CC6, Type = 0xFFFFFFF2)  returns 0x0000001C (0000ms, 1833ms total)
T2A28 010:187 JLINK_SetBPEx(Addr = 0x08007CCE, Type = 0xFFFFFFF2)  returns 0x0000001D (0000ms, 1833ms total)
T2A28 010:187 JLINK_SetBPEx(Addr = 0x08007D36, Type = 0xFFFFFFF2)  returns 0x0000001E (0000ms, 1833ms total)
T2A28 010:187 JLINK_SetBPEx(Addr = 0x08007D3E, Type = 0xFFFFFFF2)  returns 0x0000001F (0000ms, 1833ms total)
T2A28 010:187 JLINK_Go() -- CPU_WriteMem(4 bytes @ 0xE0002000) -- CPU_WriteMem(4 bytes @ 0xE0002000) -- CPU_WriteMem(4 bytes @ 0xE0002000) -- CPU_WriteMem(4 bytes @ 0xE0002000) -- CPU_WriteMem(4 bytes @ 0xE0002000) -- CPU_WriteMem(4 bytes @ 0xE0002000) -- CPU_ReadMem(4 bytes @ 0xE0001000) -- CPU_WriteMem(4 bytes @ 0xE0001004) (0005ms, 1838ms total)
T2A28 010:292 JLINK_IsHalted()  returns TRUE (0001ms, 1839ms total)
T2A28 010:294 JLINK_Halt()  returns 0x00 (0000ms, 1838ms total)
T2A28 010:294 JLINK_IsHalted()  returns TRUE (0000ms, 1838ms total)
T2A28 010:294 JLINK_IsHalted()  returns TRUE (0000ms, 1838ms total)
T2A28 010:294 JLINK_IsHalted()  returns TRUE (0000ms, 1838ms total)
T2A28 010:294 JLINK_ReadReg(R15 (PC))  returns 0x08007CCE (0000ms, 1838ms total)
T2A28 010:294 JLINK_ReadReg(XPSR)  returns 0xA100002D (0000ms, 1838ms total)
T2A28 010:294 JLINK_ClrBPEx(BPHandle = 0x0000001A)  returns 0x00 (0000ms, 1838ms total)
T2A28 010:294 JLINK_ClrBPEx(BPHandle = 0x0000001B)  returns 0x00 (0000ms, 1838ms total)
T2A28 010:294 JLINK_ClrBPEx(BPHandle = 0x0000001C)  returns 0x00 (0000ms, 1838ms total)
T2A28 010:294 JLINK_ClrBPEx(BPHandle = 0x0000001D)  returns 0x00 (0000ms, 1838ms total)
T2A28 010:294 JLINK_ClrBPEx(BPHandle = 0x0000001E)  returns 0x00 (0000ms, 1838ms total)
T2A28 010:294 JLINK_ClrBPEx(BPHandle = 0x0000001F)  returns 0x00 (0000ms, 1838ms total)
T2A28 010:294 JLINK_ReadMemU32(0xE000ED30, 0x0001 Items, ...) -- CPU_ReadMem(4 bytes @ 0xE000ED30) - Data: 03 00 00 00  returns 0x01 (0000ms, 1838ms total)
T2A28 010:294 JLINK_ReadMemU32(0xE0001028, 0x0001 Items, ...) -- CPU_ReadMem(4 bytes @ 0xE0001028) - Data: 00 00 00 00  returns 0x01 (0001ms, 1839ms total)
T2A28 010:295 JLINK_ReadMemU32(0xE0001038, 0x0001 Items, ...) -- CPU_ReadMem(4 bytes @ 0xE0001038) - Data: 00 02 00 00  returns 0x01 (0001ms, 1840ms total)
T2A28 010:296 JLINK_ReadMemU32(0xE0001048, 0x0001 Items, ...) -- CPU_ReadMem(4 bytes @ 0xE0001048) - Data: 00 00 00 00  returns 0x01 (0000ms, 1840ms total)
T2A28 010:296 JLINK_ReadMemU32(0xE0001058, 0x0001 Items, ...) -- CPU_ReadMem(4 bytes @ 0xE0001058) - Data: 00 00 00 00  returns 0x01 (0001ms, 1841ms total)
T2A28 010:297 JLINK_ReadReg(R0)  returns 0x40000400 (0000ms, 1841ms total)
T2A28 010:297 JLINK_ReadReg(R1)  returns 0x00000001 (0000ms, 1841ms total)
T2A28 010:297 JLINK_ReadReg(R2)  returns 0xFFFFFFFE (0000ms, 1841ms total)
T2A28 010:297 JLINK_ReadReg(R3)  returns 0x00000036 (0000ms, 1841ms total)
T2A28 010:297 JLINK_ReadReg(R4)  returns 0x00000039 (0000ms, 1841ms total)
T2A28 010:297 JLINK_ReadReg(R5)  returns 0x00000037 (0000ms, 1841ms total)
T2A28 010:297 JLINK_ReadReg(R6)  returns 0x00000000 (0000ms, 1841ms total)
T2A28 010:297 JLINK_ReadReg(R7)  returns 0x00000049 (0000ms, 1841ms total)
T2A28 010:297 JLINK_ReadReg(R8)  returns 0x00000039 (0000ms, 1841ms total)
T2A28 010:297 JLINK_ReadReg(R9)  returns 0x00000000 (0000ms, 1841ms total)
T2A28 010:297 JLINK_ReadReg(R10)  returns 0x00000007 (0000ms, 1841ms total)
T2A28 010:297 JLINK_ReadReg(R11)  returns 0x00000030 (0000ms, 1841ms total)
T2A28 010:297 JLINK_ReadReg(R12)  returns 0x00000006 (0000ms, 1841ms total)
T2A28 010:297 JLINK_ReadReg(R13 (SP))  returns 0x20010568 (0000ms, 1841ms total)
T2A28 010:297 JLINK_ReadReg(R14)  returns 0x08007CCF (0000ms, 1841ms total)
T2A28 010:297 JLINK_ReadReg(R15 (PC))  returns 0x08007CCE (0000ms, 1841ms total)
T2A28 010:297 JLINK_ReadReg(XPSR)  returns 0xA100002D (0000ms, 1841ms total)
